
T2114 000:074 SEGGER J-Link V6.00e Log File (0003ms, 0036ms total)
T2114 000:074 DLL Compiled: Aug  4 2016 09:37:38 (0003ms, 0036ms total)
T2114 000:074 Logging started @ 2021-10-23 11:37 (0004ms, 0037ms total)
T2114 000:078 JLINK_SetWarnOutHandler(...) (0000ms, 0037ms total)
T2114 000:078 JLINK_OpenEx(...)
Firmware: J-Link V9 compiled Sep  1 2016 18:29:50
Hardware: V9.60
S/N: 69618560
Feature(s): RDI, GDB, FlashDL, FlashBP, JFlash  returns O.K. (0019ms, 0056ms total)
T2114 000:097 JLINK_SetErrorOutHandler(...) (0000ms, 0056ms total)
T2114 000:097 JLINK_ExecCommand("ProjectFile = "E:\研究生阶段\6LowPan边缘网关\软件 -收\JLinkSettings.ini"", ...).   returns 0x00 (0148ms, 0204ms total)
T2114 000:245 JLINK_ExecCommand("Device = STM32F407VE", ...). Device "STM32F407VE" selected.  returns 0x00 (0001ms, 0205ms total)
T2114 000:246 JLINK_ExecCommand("DisableConnectionTimeout", ...).   returns 0x01 (0000ms, 0205ms total)
T2114 000:246 JLINK_GetHardwareVersion()  returns 0x17700 (0000ms, 0205ms total)
T2114 000:246 JLINK_GetDLLVersion()  returns 60005 (0000ms, 0205ms total)
T2114 000:246 JLINK_GetFirmwareString(...) (0000ms, 0205ms total)
T2114 000:246 JLINK_GetDLLVersion()  returns 60005 (0000ms, 0205ms total)
T2114 000:246 JLINK_GetCompileDateTime() (0000ms, 0205ms total)
T2114 000:246 JLINK_GetFirmwareString(...) (0000ms, 0205ms total)
T2114 000:246 JLINK_GetHardwareVersion()  returns 0x17700 (0000ms, 0205ms total)
T2114 000:246 JLINK_TIF_Select(JLINKARM_TIF_SWD)  returns 0x00 (0001ms, 0206ms total)
T2114 000:247 JLINK_SetSpeed(2000) (0000ms, 0206ms total)
T2114 000:247 JLINK_GetId() >0x108 TIF>Found SWD-DP with ID 0x2BA01477 >0x0D TIF> >0x28 TIF> >0x0D TIF> >0x28 TIF> >0x0D TIF> >0x28 TIF> >0x0D TIF> >0x28 TIF> >0x0D TIF> >0x21 TIF> >0x0D TIF> >0x28 TIF> >0x0D TIF> >0x28 TIF> >0x0D TIF> >0x28 TIF> >0x0D TIF> >0x21 TIF> >0x0D TIF> >0x21 TIF> >0x0D TIF> >0x28 TIF> >0x0D TIF> >0x21 TIF> >0x0D TIF> >0x21 TIF> >0x0D TIF> >0x28 TIF> >0x0D TIF> >0x21 TIF> >0x0D TIF> >0x21 TIF> >0x0D TIF> >0x28 TIF> >0x0D TIF> >0x21 TIF> >0x0D TIF> >0x21 TIF> >0x0D TIF>
 >0x28 TIF> >0x0D TIF> >0x21 TIF> >0x0D TIF> >0x21 TIF> >0x0D TIF> >0x28 TIF> >0x0D TIF> >0x21 TIF> >0x0D TIF> >0x21 TIF> >0x108 TIF>Found SWD-DP with ID 0x2BA01477 >0x0D TIF> >0x28 TIF> >0x0D TIF> >0x28 TIF> >0x0D TIF> >0x28 TIF> >0x0D TIF> >0x28 TIF> >0x0D TIF> >0x21 TIF> >0x0D TIF> >0x28 TIF> >0x0D TIF> >0x28 TIF> >0x0D TIF> >0x21 TIF> >0x0D TIF> >0x21 TIF> >0x0D TIF> >0x21 TIF>AP-IDR: 0x24770011, Type: AHB-AP >0x0D TIF> >0x28 TIF> >0x0D TIF> >0x28 TIF> >0x0D TIF> >0x28 TIF> >0x0D TIF> >0x21 TIF>
 >0x0D TIF> >0x21 TIF> >0x0D TIF> >0x28 TIF> >0x0D TIF> >0x21 TIF> >0x0D TIF> >0x21 TIF>Found Cortex-M4 r0p1, Little endian. -- CPU_ReadMem(4 bytes @ 0xE000EDF0) -- CPU_ReadMem(4 bytes @ 0xE0002000)FPUnit: 6 code (BP) slots and 2 literal slots -- CPU_ReadMem(4 bytes @ 0xE000EDFC) -- CPU_ReadMem(4 bytes @ 0xE0001000) -- CPU_WriteMem(4 bytes @ 0xE0001000) -- CPU_ReadMem(4 bytes @ 0xE000ED88) -- CPU_WriteMem(4 bytes @ 0xE000ED88) -- CPU_ReadMem(4 bytes @ 0xE000ED88) -- CPU_WriteMem(4 bytes @ 0xE000ED88)
CoreSight components:ROMTbl 0 @ E00FF000 -- CPU_ReadMem(16 bytes @ 0xE00FF000) -- CPU_ReadMem(16 bytes @ 0xE000EFF0) -- CPU_ReadMem(16 bytes @ 0xE000EFE0)ROMTbl 0 [0]: FFF0F000, CID: B105E00D, PID: 000BB00C SCS -- CPU_ReadMem(16 bytes @ 0xE0001FF0) -- CPU_ReadMem(16 bytes @ 0xE0001FE0)ROMTbl 0 [1]: FFF02000, CID: B105E00D, PID: 003BB002 DWT -- CPU_ReadMem(16 bytes @ 0xE0002FF0) -- CPU_ReadMem(16 bytes @ 0xE0002FE0)ROMTbl 0 [2]: FFF03000, CID: B105E00D, PID: 002BB003 FPB
 -- CPU_ReadMem(16 bytes @ 0xE0000FF0) -- CPU_ReadMem(16 bytes @ 0xE0000FE0)ROMTbl 0 [3]: FFF01000, CID: B105E00D, PID: 003BB001 ITM -- CPU_ReadMem(16 bytes @ 0xE00FF010) -- CPU_ReadMem(16 bytes @ 0xE0040FF0) -- CPU_ReadMem(16 bytes @ 0xE0040FE0)ROMTbl 0 [4]: FFF41000, CID: B105900D, PID: 000BB9A1 TPIU -- CPU_ReadMem(16 bytes @ 0xE0041FF0) -- CPU_ReadMem(16 bytes @ 0xE0041FE0)ROMTbl 0 [5]: FFF42000, CID: B105900D, PID: 000BB925 ETM >0x0D TIF> >0x21 TIF>  returns 0x2BA01477 (0026ms, 0232ms total)
T2114 000:273 JLINK_GetDLLVersion()  returns 60005 (0000ms, 0232ms total)
T2114 000:274 JLINK_CORE_GetFound()  returns 0xE0000FF (0000ms, 0233ms total)
T2114 000:274 JLINK_GetDebugInfo(0x100) -- Value=0xE00FF000  returns 0x00 (0000ms, 0233ms total)
T2114 000:274 JLINK_GetDebugInfo(0x100) -- Value=0xE00FF000  returns 0x00 (0000ms, 0233ms total)
T2114 000:274 JLINK_GetDebugInfo(0x101) -- Value=0xE0041000  returns 0x00 (0000ms, 0233ms total)
T2114 000:274 JLINK_GetDebugInfo(0x102) -- Value=0x00000000  returns 0x00 (0000ms, 0233ms total)
T2114 000:274 JLINK_GetDebugInfo(0x103) -- Value=0xE0040000  returns 0x00 (0000ms, 0233ms total)
T2114 000:274 JLINK_GetDebugInfo(0x104) -- Value=0xE0000000  returns 0x00 (0000ms, 0233ms total)
T2114 000:274 JLINK_GetDebugInfo(0x105) -- Value=0xE0001000  returns 0x00 (0000ms, 0233ms total)
T2114 000:274 JLINK_GetDebugInfo(0x106) -- Value=0xE0002000  returns 0x00 (0000ms, 0233ms total)
T2114 000:274 JLINK_GetDebugInfo(0x107) -- Value=0xE000E000  returns 0x00 (0000ms, 0233ms total)
T2114 000:274 JLINK_GetDebugInfo(0x10C) -- Value=0xE000EDF0  returns 0x00 (0000ms, 0233ms total)
T2114 000:274 JLINK_ReadMemU32(0xE000EF40, 0x0001 Items, ...) -- CPU is running -- CPU_ReadMem(4 bytes @ 0xE000EF40) - Data: 21 00 11 10  returns 0x01 (0000ms, 0233ms total)
T2114 000:274 JLINK_ReadMemU32(0xE000EF44, 0x0001 Items, ...) -- CPU is running -- CPU_ReadMem(4 bytes @ 0xE000EF44) - Data: 11 00 00 11  returns 0x01 (0001ms, 0234ms total)
T2114 000:275 JLINK_ReadMemU32(0xE000ED00, 0x0001 Items, ...) -- CPU is running -- CPU_ReadMem(4 bytes @ 0xE000ED00) - Data: 41 C2 0F 41  returns 0x01 (0000ms, 0234ms total)
T2114 000:275 JLINK_SetResetType(JLINKARM_RESET_TYPE_NORMAL)  returns JLINKARM_RESET_TYPE_NORMAL (0000ms, 0234ms total)
T2114 000:275 JLINK_Reset() -- CPU is running -- CPU_WriteMem(4 bytes @ 0xE000EDF0) -- CPU is running -- CPU_WriteMem(4 bytes @ 0xE000EDFC) >0x35 TIF> -- CPU is running -- CPU_WriteMem(4 bytes @ 0xE000ED0C) -- CPU is running -- CPU_ReadMem(4 bytes @ 0xE000EDF0) -- CPU is running -- CPU_ReadMem(4 bytes @ 0xE000EDF0) -- CPU is running -- CPU_WriteMem(4 bytes @ 0xE000EDF0) -- CPU is running -- CPU_WriteMem(4 bytes @ 0xE000EDFC) -- CPU is running -- CPU_ReadMem(4 bytes @ 0xE000EDF0)
 -- CPU_WriteMem(4 bytes @ 0xE0002000) -- CPU_ReadMem(4 bytes @ 0xE000EDFC) -- CPU_ReadMem(4 bytes @ 0xE0001000) (0017ms, 0251ms total)
T2114 000:292 JLINK_ReadReg(R15 (PC))  returns 0xFFFFFFFE (0000ms, 0251ms total)
T2114 000:292 JLINK_ReadReg(XPSR)  returns 0x01000000 (0000ms, 0251ms total)
T2114 000:292 JLINK_Halt()  returns 0x00 (0000ms, 0251ms total)
T2114 000:292 JLINK_IsHalted()  returns TRUE (0000ms, 0251ms total)
T2114 000:292 JLINK_ReadMemU32(0xE000EDF0, 0x0001 Items, ...) -- CPU_ReadMem(4 bytes @ 0xE000EDF0) - Data: 03 00 03 00  returns 0x01 (0000ms, 0251ms total)
T2114 000:292 JLINK_WriteU32(0xE000EDF0, 0xA05F0003) -- CPU_WriteMem(4 bytes @ 0xE000EDF0)  returns 0x00 (0000ms, 0251ms total)
T2114 000:292 JLINK_WriteU32(0xE000EDFC, 0x01000000) -- CPU_WriteMem(4 bytes @ 0xE000EDFC)  returns 0x00 (0001ms, 0252ms total)
T2114 000:293 JLINK_GetHWStatus(...)  returns 0x00 (0000ms, 0252ms total)
T2114 000:293 JLINK_GetNumBPUnits(Type = 0xFFFFFF00)  returns 0x06 (0000ms, 0252ms total)
T2114 000:293 JLINK_GetNumBPUnits(Type = 0xF0)  returns 0x2000 (0000ms, 0252ms total)
T2114 000:293 JLINK_GetNumWPUnits()  returns 0x04 (0000ms, 0252ms total)
T2114 000:293 JLINK_GetSpeed()  returns 0x7D0 (0000ms, 0252ms total)
T2114 000:293 JLINK_ReadMemU32(0xE000E004, 0x0001 Items, ...) -- CPU_ReadMem(4 bytes @ 0xE000E004) - Data: 02 00 00 00  returns 0x01 (0001ms, 0253ms total)
T2114 000:294 JLINK_ReadMemU32(0xE000E004, 0x0001 Items, ...) -- CPU_ReadMem(4 bytes @ 0xE000E004) - Data: 02 00 00 00  returns 0x01 (0000ms, 0253ms total)
T2114 000:294 JLINK_WriteMem(0xE0001000, 0x001C Bytes, ...) - Data: 01 00 00 00 00 00 00 00 00 00 00 00 00 00 00 00 ... -- CPU_WriteMem(28 bytes @ 0xE0001000)  returns 0x1C (0001ms, 0254ms total)
T2114 000:295 JLINK_ReadMem (0xE0001000, 0x001C Bytes, ...) -- CPU_ReadMem(28 bytes @ 0xE0001000) - Data: 01 00 00 40 00 00 00 00 00 00 00 00 00 00 00 00 ...  returns 0x00 (0000ms, 0254ms total)
T2114 000:295 JLINK_ReadReg(R15 (PC))  returns 0xFFFFFFFE (0000ms, 0254ms total)
T2114 000:296 JLINK_ReadReg(XPSR)  returns 0x01000000 (0000ms, 0255ms total)
T2114 000:384 JLINK_SetResetType(JLINKARM_RESET_TYPE_NORMAL)  returns JLINKARM_RESET_TYPE_NORMAL (0000ms, 0255ms total)
T2114 000:384 JLINK_Reset() -- CPU_WriteMem(4 bytes @ 0xE000EDF0) -- CPU_WriteMem(4 bytes @ 0xE000EDFC) >0x35 TIF> -- CPU_WriteMem(4 bytes @ 0xE000ED0C) -- CPU_ReadMem(4 bytes @ 0xE000EDF0) -- CPU_ReadMem(4 bytes @ 0xE000EDF0) -- CPU_WriteMem(4 bytes @ 0xE000EDF0) -- CPU_WriteMem(4 bytes @ 0xE000EDFC) -- CPU is running -- CPU_ReadMem(4 bytes @ 0xE000EDF0) -- CPU_WriteMem(4 bytes @ 0xE0002000) -- CPU_ReadMem(4 bytes @ 0xE000EDFC) -- CPU_ReadMem(4 bytes @ 0xE0001000) (0020ms, 0275ms total)
T2114 000:404 JLINK_ReadReg(R15 (PC))  returns 0xFFFFFFFE (0000ms, 0275ms total)
T2114 000:404 JLINK_ReadReg(XPSR)  returns 0x01000000 (0000ms, 0275ms total)
T2114 000:404 JLINK_ReadMem (0xFFFFFFFE, 0x0002 Bytes, ...) -- CPU_ReadMem(2 bytes @ 0xFFFFFFFE) - Data: 00 00  returns 0x00 (0001ms, 0276ms total)
T2114 000:405 JLINK_ReadMem (0x00000000, 0x003C Bytes, ...) -- CPU_ReadMem(4 bytes @ 0x00000004) -- CPU_ReadMem(64 bytes @ 0x08000000) -- Updating C cache (64 bytes @ 0x08000000) -- Read from C cache (60 bytes @ 0x08000000) - Data: FF FF FF FF FF FF FF FF FF FF FF FF FF FF FF FF ...  returns 0x00 (0003ms, 0279ms total)
T2114 003:114 JLINK_WriteReg(R13 (SP), 0x20015920)  returns 0x00 (0000ms, 0279ms total)
T2114 003:114 JLINK_ReadReg(R0)  returns 0x00000000 (0001ms, 0280ms total)
T2114 003:115 JLINK_ReadReg(R1)  returns 0x00000000 (0000ms, 0280ms total)
T2114 003:115 JLINK_ReadReg(R2)  returns 0x00000000 (0000ms, 0280ms total)
T2114 003:115 JLINK_ReadReg(R3)  returns 0x00000000 (0000ms, 0280ms total)
T2114 003:115 JLINK_ReadReg(R4)  returns 0x00000000 (0000ms, 0280ms total)
T2114 003:115 JLINK_ReadReg(R5)  returns 0x00000000 (0000ms, 0280ms total)
T2114 003:115 JLINK_ReadReg(R6)  returns 0x00000000 (0000ms, 0280ms total)
T2114 003:115 JLINK_ReadReg(R7)  returns 0x00000000 (0000ms, 0280ms total)
T2114 003:115 JLINK_ReadReg(R8)  returns 0x00000000 (0000ms, 0280ms total)
T2114 003:115 JLINK_ReadReg(R9)  returns 0x00000000 (0000ms, 0280ms total)
T2114 003:115 JLINK_ReadReg(R10)  returns 0x00000000 (0000ms, 0280ms total)
T2114 003:115 JLINK_ReadReg(R11)  returns 0x00000000 (0000ms, 0280ms total)
T2114 003:115 JLINK_ReadReg(R12)  returns 0x00000000 (0000ms, 0280ms total)
T2114 003:115 JLINK_ReadReg(R13 (SP))  returns 0x20015920 (0000ms, 0280ms total)
T2114 003:115 JLINK_ReadReg(R14)  returns 0xFFFFFFFF (0000ms, 0280ms total)
T2114 003:115 JLINK_ReadReg(R15 (PC))  returns 0xFFFFFFFE (0000ms, 0280ms total)
T2114 003:115 JLINK_ReadReg(XPSR)  returns 0x01000000 (0000ms, 0280ms total)
T2114 003:115 JLINK_ReadReg(MSP)  returns 0x20015920 (0000ms, 0280ms total)
T2114 003:115 JLINK_ReadReg(PSP)  returns 0x00000000 (0000ms, 0280ms total)
T2114 003:115 JLINK_ReadReg(CFBP)  returns 0x00000000 (0000ms, 0280ms total)
T2114 003:115 JLINK_ReadReg(FPSCR)  returns 0x00000000 (0007ms, 0287ms total)
T2114 003:122 JLINK_ReadReg(FPS0)  returns 0x00000000 (0000ms, 0287ms total)
T2114 003:122 JLINK_ReadReg(FPS1)  returns 0x00000000 (0000ms, 0287ms total)
T2114 003:122 JLINK_ReadReg(FPS2)  returns 0x00000000 (0000ms, 0287ms total)
T2114 003:122 JLINK_ReadReg(FPS3)  returns 0x00000000 (0000ms, 0287ms total)
T2114 003:122 JLINK_ReadReg(FPS4)  returns 0x00000000 (0000ms, 0287ms total)
T2114 003:122 JLINK_ReadReg(FPS5)  returns 0x00000000 (0000ms, 0287ms total)
T2114 003:122 JLINK_ReadReg(FPS6)  returns 0x00000000 (0000ms, 0287ms total)
T2114 003:122 JLINK_ReadReg(FPS7)  returns 0x00000000 (0001ms, 0288ms total)
T2114 003:123 JLINK_ReadReg(FPS8)  returns 0x00000000 (0000ms, 0288ms total)
T2114 003:123 JLINK_ReadReg(FPS9)  returns 0x00000000 (0000ms, 0288ms total)
T2114 003:123 JLINK_ReadReg(FPS10)  returns 0x00000000 (0000ms, 0288ms total)
T2114 003:123 JLINK_ReadReg(FPS11)  returns 0x00000000 (0000ms, 0288ms total)
T2114 003:123 JLINK_ReadReg(FPS12)  returns 0x00000000 (0000ms, 0288ms total)
T2114 003:123 JLINK_ReadReg(FPS13)  returns 0x00000000 (0000ms, 0288ms total)
T2114 003:123 JLINK_ReadReg(FPS14)  returns 0x00000000 (0000ms, 0288ms total)
T2114 003:123 JLINK_ReadReg(FPS15)  returns 0x00000000 (0000ms, 0288ms total)
T2114 003:123 JLINK_ReadReg(FPS16)  returns 0x00000000 (0000ms, 0288ms total)
T2114 003:123 JLINK_ReadReg(FPS17)  returns 0x00000000 (0000ms, 0288ms total)
T2114 003:123 JLINK_ReadReg(FPS18)  returns 0x00000000 (0000ms, 0288ms total)
T2114 003:123 JLINK_ReadReg(FPS19)  returns 0x00000000 (0000ms, 0288ms total)
T2114 003:123 JLINK_ReadReg(FPS20)  returns 0x00000000 (0000ms, 0288ms total)
T2114 003:123 JLINK_ReadReg(FPS21)  returns 0x00000000 (0000ms, 0288ms total)
T2114 003:123 JLINK_ReadReg(FPS22)  returns 0x00000000 (0000ms, 0288ms total)
T2114 003:123 JLINK_ReadReg(FPS23)  returns 0x00000000 (0000ms, 0288ms total)
T2114 003:123 JLINK_ReadReg(FPS24)  returns 0x00000000 (0000ms, 0288ms total)
T2114 003:123 JLINK_ReadReg(FPS25)  returns 0x00000000 (0000ms, 0288ms total)
T2114 003:123 JLINK_ReadReg(FPS26)  returns 0x00000000 (0001ms, 0289ms total)
T2114 003:124 JLINK_ReadReg(FPS27)  returns 0x00000000 (0000ms, 0289ms total)
T2114 003:124 JLINK_ReadReg(FPS28)  returns 0x00000000 (0000ms, 0289ms total)
T2114 003:124 JLINK_ReadReg(FPS29)  returns 0x00000000 (0000ms, 0289ms total)
T2114 003:124 JLINK_ReadReg(FPS30)  returns 0x00000000 (0000ms, 0289ms total)
T2114 003:124 JLINK_ReadReg(FPS31)  returns 0x00000000 (0000ms, 0289ms total)
T2114 003:124 JLINK_WriteReg(R15 (PC), 0x2000030C)  returns 0x00 (0000ms, 0289ms total)
T2114 003:124 JLINK_ReadReg(R0)  returns 0x00000000 (0000ms, 0289ms total)
T2114 003:124 JLINK_ReadReg(R1)  returns 0x00000000 (0000ms, 0289ms total)
T2114 003:124 JLINK_ReadReg(R2)  returns 0x00000000 (0000ms, 0289ms total)
T2114 003:124 JLINK_ReadReg(R3)  returns 0x00000000 (0000ms, 0289ms total)
T2114 003:124 JLINK_ReadReg(R4)  returns 0x00000000 (0000ms, 0289ms total)
T2114 003:124 JLINK_ReadReg(R5)  returns 0x00000000 (0000ms, 0289ms total)
T2114 003:125 JLINK_ReadReg(R6)  returns 0x00000000 (0000ms, 0289ms total)
T2114 003:125 JLINK_ReadReg(R7)  returns 0x00000000 (0000ms, 0289ms total)
T2114 003:125 JLINK_ReadReg(R8)  returns 0x00000000 (0000ms, 0289ms total)
T2114 003:125 JLINK_ReadReg(R9)  returns 0x00000000 (0000ms, 0289ms total)
T2114 003:125 JLINK_ReadReg(R10)  returns 0x00000000 (0000ms, 0289ms total)
T2114 003:125 JLINK_ReadReg(R11)  returns 0x00000000 (0000ms, 0289ms total)
T2114 003:125 JLINK_ReadReg(R12)  returns 0x00000000 (0000ms, 0289ms total)
T2114 003:125 JLINK_ReadReg(R13 (SP))  returns 0x20015920 (0000ms, 0289ms total)
T2114 003:125 JLINK_ReadReg(R14)  returns 0xFFFFFFFF (0000ms, 0289ms total)
T2114 003:125 JLINK_ReadReg(R15 (PC))  returns 0x2000030C (0000ms, 0289ms total)
T2114 003:125 JLINK_ReadReg(XPSR)  returns 0x01000000 (0000ms, 0289ms total)
T2114 003:125 JLINK_ReadReg(MSP)  returns 0x20015920 (0000ms, 0289ms total)
T2114 003:125 JLINK_ReadReg(PSP)  returns 0x00000000 (0000ms, 0289ms total)
T2114 003:125 JLINK_ReadReg(CFBP)  returns 0x00000000 (0000ms, 0289ms total)
T2114 003:125 JLINK_ReadReg(FPSCR)  returns 0x00000000 (0000ms, 0289ms total)
T2114 003:125 JLINK_ReadReg(FPS0)  returns 0x00000000 (0000ms, 0289ms total)
T2114 003:125 JLINK_ReadReg(FPS1)  returns 0x00000000 (0000ms, 0289ms total)
T2114 003:125 JLINK_ReadReg(FPS2)  returns 0x00000000 (0000ms, 0289ms total)
T2114 003:125 JLINK_ReadReg(FPS3)  returns 0x00000000 (0000ms, 0289ms total)
T2114 003:125 JLINK_ReadReg(FPS4)  returns 0x00000000 (0000ms, 0289ms total)
T2114 003:125 JLINK_ReadReg(FPS5)  returns 0x00000000 (0000ms, 0289ms total)
T2114 003:125 JLINK_ReadReg(FPS6)  returns 0x00000000 (0000ms, 0289ms total)
T2114 003:125 JLINK_ReadReg(FPS7)  returns 0x00000000 (0000ms, 0289ms total)
T2114 003:125 JLINK_ReadReg(FPS8)  returns 0x00000000 (0001ms, 0290ms total)
T2114 003:126 JLINK_ReadReg(FPS9)  returns 0x00000000 (0000ms, 0290ms total)
T2114 003:126 JLINK_ReadReg(FPS10)  returns 0x00000000 (0000ms, 0290ms total)
T2114 003:126 JLINK_ReadReg(FPS11)  returns 0x00000000 (0000ms, 0290ms total)
T2114 003:126 JLINK_ReadReg(FPS12)  returns 0x00000000 (0000ms, 0290ms total)
T2114 003:126 JLINK_ReadReg(FPS13)  returns 0x00000000 (0000ms, 0290ms total)
T2114 003:126 JLINK_ReadReg(FPS14)  returns 0x00000000 (0000ms, 0290ms total)
T2114 003:126 JLINK_ReadReg(FPS15)  returns 0x00000000 (0000ms, 0290ms total)
T2114 003:126 JLINK_ReadReg(FPS16)  returns 0x00000000 (0000ms, 0290ms total)
T2114 003:126 JLINK_ReadReg(FPS17)  returns 0x00000000 (0000ms, 0290ms total)
T2114 003:126 JLINK_ReadReg(FPS18)  returns 0x00000000 (0000ms, 0290ms total)
T2114 003:126 JLINK_ReadReg(FPS19)  returns 0x00000000 (0000ms, 0290ms total)
T2114 003:126 JLINK_ReadReg(FPS20)  returns 0x00000000 (0000ms, 0290ms total)
T2114 003:126 JLINK_ReadReg(FPS21)  returns 0x00000000 (0000ms, 0290ms total)
T2114 003:126 JLINK_ReadReg(FPS22)  returns 0x00000000 (0000ms, 0290ms total)
T2114 003:126 JLINK_ReadReg(FPS23)  returns 0x00000000 (0000ms, 0290ms total)
T2114 003:126 JLINK_ReadReg(FPS24)  returns 0x00000000 (0000ms, 0290ms total)
T2114 003:126 JLINK_ReadReg(FPS25)  returns 0x00000000 (0000ms, 0290ms total)
T2114 003:126 JLINK_ReadReg(FPS26)  returns 0x00000000 (0000ms, 0290ms total)
T2114 003:126 JLINK_ReadReg(FPS27)  returns 0x00000000 (0000ms, 0290ms total)
T2114 003:126 JLINK_ReadReg(FPS28)  returns 0x00000000 (0000ms, 0290ms total)
T2114 003:126 JLINK_ReadReg(FPS29)  returns 0x00000000 (0000ms, 0290ms total)
T2114 003:127 JLINK_ReadReg(FPS30)  returns 0x00000000 (0000ms, 0291ms total)
T2114 003:127 JLINK_ReadReg(FPS31)  returns 0x00000000 (0000ms, 0291ms total)
T2284 003:152 JLINK_SetBPEx(Addr = 0x20002760, Type = 0xFFFFFFF2) -- CPU_ReadMem(2 bytes @ 0x20002760)  returns 0x00000001 (0000ms, 0291ms total)
T2284 003:153 JLINK_Go() -- CPU_WriteMem(2 bytes @ 0x20002760) -- CPU_ReadMem(4 bytes @ 0xE0001000) -- CPU_WriteMem(4 bytes @ 0xE0002008) -- CPU_WriteMem(4 bytes @ 0xE000200C) -- CPU_WriteMem(4 bytes @ 0xE0002010) -- CPU_WriteMem(4 bytes @ 0xE0002014) -- CPU_WriteMem(4 bytes @ 0xE0002018) -- CPU_WriteMem(4 bytes @ 0xE000201C) -- CPU_WriteMem(4 bytes @ 0xE0001004) (0005ms, 0296ms total)
T2284 003:260 JLINK_IsHalted() -- CPU_ReadMem(2 bytes @ 0x20002760)  returns TRUE (0004ms, 0301ms total)
T2284 003:264 JLINK_Halt()  returns 0x00 (0000ms, 0297ms total)
T2284 003:264 JLINK_IsHalted()  returns TRUE (0000ms, 0297ms total)
T2284 003:264 JLINK_IsHalted()  returns TRUE (0000ms, 0297ms total)
T2284 003:264 JLINK_IsHalted()  returns TRUE (0000ms, 0297ms total)
T2284 003:264 JLINK_ReadReg(R15 (PC))  returns 0x20002760 (0000ms, 0297ms total)
T2284 003:264 JLINK_ReadReg(XPSR)  returns 0x61000000 (0000ms, 0297ms total)
T2284 003:264 JLINK_ClrBPEx(BPHandle = 0x00000001)  returns 0x00 (0000ms, 0297ms total)
T2284 003:264 JLINK_ReadMemU32(0xE000ED30, 0x0001 Items, ...) -- CPU_ReadMem(4 bytes @ 0xE000ED30) - Data: 02 00 00 00  returns 0x01 (0000ms, 0297ms total)
T2284 003:264 JLINK_ReadMemU32(0xE0001028, 0x0001 Items, ...) -- CPU_ReadMem(4 bytes @ 0xE0001028) - Data: 00 00 00 00  returns 0x01 (0001ms, 0298ms total)
T2284 003:265 JLINK_ReadMemU32(0xE0001038, 0x0001 Items, ...) -- CPU_ReadMem(4 bytes @ 0xE0001038) - Data: 00 02 00 00  returns 0x01 (0000ms, 0298ms total)
T2284 003:265 JLINK_ReadMemU32(0xE0001048, 0x0001 Items, ...) -- CPU_ReadMem(4 bytes @ 0xE0001048) - Data: 00 00 00 00  returns 0x01 (0000ms, 0298ms total)
T2284 003:265 JLINK_ReadMemU32(0xE0001058, 0x0001 Items, ...) -- CPU_ReadMem(4 bytes @ 0xE0001058) - Data: 00 00 00 00  returns 0x01 (0001ms, 0299ms total)
T2284 003:266 JLINK_ReadReg(R0)  returns 0x20015320 (0000ms, 0299ms total)
T2284 003:266 JLINK_ReadReg(R1)  returns 0x20015520 (0000ms, 0299ms total)
T2284 003:266 JLINK_ReadReg(R2)  returns 0x20015520 (0000ms, 0299ms total)
T2284 003:266 JLINK_ReadReg(R3)  returns 0x20015520 (0000ms, 0299ms total)
T2284 003:266 JLINK_ReadReg(R4)  returns 0x00000000 (0000ms, 0299ms total)
T2284 003:266 JLINK_ReadReg(R5)  returns 0x200152BC (0000ms, 0299ms total)
T2284 003:266 JLINK_ReadReg(R6)  returns 0x00000000 (0000ms, 0299ms total)
T2284 003:266 JLINK_ReadReg(R7)  returns 0x00000000 (0000ms, 0299ms total)
T2284 003:266 JLINK_ReadReg(R8)  returns 0x00000000 (0000ms, 0299ms total)
T2284 003:266 JLINK_ReadReg(R9)  returns 0x00000000 (0000ms, 0299ms total)
T2284 003:266 JLINK_ReadReg(R10)  returns 0x200048D0 (0000ms, 0299ms total)
T2284 003:266 JLINK_ReadReg(R11)  returns 0x00000000 (0000ms, 0299ms total)
T2284 003:266 JLINK_ReadReg(R12)  returns 0x200152FC (0000ms, 0299ms total)
T2284 003:266 JLINK_ReadReg(R13 (SP))  returns 0x20015920 (0000ms, 0299ms total)
T2284 003:266 JLINK_ReadReg(R14)  returns 0x2000023D (0000ms, 0299ms total)
T2284 003:266 JLINK_ReadReg(R15 (PC))  returns 0x20002760 (0000ms, 0299ms total)
T2284 003:266 JLINK_ReadReg(XPSR)  returns 0x61000000 (0000ms, 0299ms total)
T2284 003:266 JLINK_ReadReg(MSP)  returns 0x20015920 (0000ms, 0299ms total)
T2284 003:266 JLINK_ReadReg(PSP)  returns 0x00000000 (0000ms, 0299ms total)
T2284 003:266 JLINK_ReadReg(CFBP)  returns 0x04000000 (0000ms, 0299ms total)
T2284 003:266 JLINK_ReadReg(FPSCR)  returns 0x03000000 (0006ms, 0305ms total)
T2284 003:272 JLINK_ReadReg(FPS0)  returns 0x00000000 (0000ms, 0305ms total)
T2284 003:272 JLINK_ReadReg(FPS1)  returns 0x00000000 (0000ms, 0305ms total)
T2284 003:272 JLINK_ReadReg(FPS2)  returns 0x00000000 (0000ms, 0305ms total)
T2284 003:272 JLINK_ReadReg(FPS3)  returns 0x00000000 (0000ms, 0305ms total)
T2284 003:273 JLINK_ReadReg(FPS4)  returns 0x00000000 (0000ms, 0306ms total)
T2284 003:273 JLINK_ReadReg(FPS5)  returns 0x00000000 (0000ms, 0306ms total)
T2284 003:273 JLINK_ReadReg(FPS6)  returns 0x00000000 (0000ms, 0306ms total)
T2284 003:273 JLINK_ReadReg(FPS7)  returns 0x00000000 (0000ms, 0306ms total)
T2284 003:273 JLINK_ReadReg(FPS8)  returns 0x00000000 (0000ms, 0306ms total)
T2284 003:273 JLINK_ReadReg(FPS9)  returns 0x00000000 (0000ms, 0306ms total)
T2284 003:273 JLINK_ReadReg(FPS10)  returns 0x00000000 (0000ms, 0306ms total)
T2284 003:273 JLINK_ReadReg(FPS11)  returns 0x00000000 (0000ms, 0306ms total)
T2284 003:273 JLINK_ReadReg(FPS12)  returns 0x00000000 (0000ms, 0306ms total)
T2284 003:273 JLINK_ReadReg(FPS13)  returns 0x00000000 (0000ms, 0306ms total)
T2284 003:273 JLINK_ReadReg(FPS14)  returns 0x00000000 (0000ms, 0306ms total)
T2284 003:273 JLINK_ReadReg(FPS15)  returns 0x00000000 (0000ms, 0306ms total)
T2284 003:273 JLINK_ReadReg(FPS16)  returns 0x00000000 (0000ms, 0306ms total)
T2284 003:273 JLINK_ReadReg(FPS17)  returns 0x00000000 (0000ms, 0306ms total)
T2284 003:273 JLINK_ReadReg(FPS18)  returns 0x00000000 (0000ms, 0306ms total)
T2284 003:273 JLINK_ReadReg(FPS19)  returns 0x00000000 (0000ms, 0306ms total)
T2284 003:273 JLINK_ReadReg(FPS20)  returns 0x00000000 (0000ms, 0306ms total)
T2284 003:273 JLINK_ReadReg(FPS21)  returns 0x00000000 (0000ms, 0306ms total)
T2284 003:273 JLINK_ReadReg(FPS22)  returns 0x00000000 (0000ms, 0306ms total)
T2284 003:273 JLINK_ReadReg(FPS23)  returns 0x00000000 (0000ms, 0306ms total)
T2284 003:273 JLINK_ReadReg(FPS24)  returns 0x00000000 (0000ms, 0306ms total)
T2284 003:273 JLINK_ReadReg(FPS25)  returns 0x00000000 (0000ms, 0306ms total)
T2284 003:273 JLINK_ReadReg(FPS26)  returns 0x00000000 (0000ms, 0306ms total)
T2284 003:273 JLINK_ReadReg(FPS27)  returns 0x00000000 (0000ms, 0306ms total)
T2284 003:273 JLINK_ReadReg(FPS28)  returns 0x00000000 (0000ms, 0306ms total)
T2284 003:273 JLINK_ReadReg(FPS29)  returns 0x00000000 (0000ms, 0306ms total)
T2284 003:273 JLINK_ReadReg(FPS30)  returns 0x00000000 (0000ms, 0306ms total)
T2284 003:273 JLINK_ReadReg(FPS31)  returns 0x00000000 (0000ms, 0306ms total)
T2114 003:312 JLINK_ReadMemU32(0xE0001004, 0x0001 Items, ...) -- CPU_ReadMem(4 bytes @ 0xE0001004) - Data: 9A 66 00 00  returns 0x01 (0000ms, 0306ms total)
T2114 003:317 JLINK_ReadMem (0x20002760, 0x003C Bytes, ...) -- CPU_ReadMem(128 bytes @ 0x20002740) -- Updating C cache (128 bytes @ 0x20002740) -- Read from C cache (60 bytes @ 0x20002760) -- Merging zombie BP[0]: 0xB51C @ 0x20002760 - Data: 1C B5 4F F4 40 70 FF F7 13 FA A8 20 FF F7 78 FF ...  returns 0x00 (0001ms, 0307ms total)
T2284 007:545 JLINK_Go() -- CPU_ReadMem(2 bytes @ 0x20002760) -- CPU_WriteMem(2 bytes @ 0x20002760) -- CPU_ReadMem(4 bytes @ 0xE0001000) (0004ms, 0311ms total)
T2284 007:650 JLINK_IsHalted()  returns FALSE (0000ms, 0311ms total)
T2284 007:751 JLINK_IsHalted()  returns FALSE (0001ms, 0312ms total)
T2284 007:853 JLINK_IsHalted()  returns FALSE (0001ms, 0312ms total)
T2284 007:955 JLINK_IsHalted()  returns FALSE (0000ms, 0311ms total)
T2284 008:056 JLINK_IsHalted()  returns FALSE (0000ms, 0311ms total)
